;Version, 1, 0
;/net3,;/Vout
;X, Y,;X, Y
;Re, Re,;Re, Re
;time, V,;time, V
;s, V,;s, V
0,0,0,1.020997123641318
8.000000000000001e-11,0,8.000000000000001e-11,1.020997123641318
2.4e-10,0,2.4e-10,1.020997123641318
5.599999999999999e-10,0,5.599999999999999e-10,1.020997123641318
1.2e-09,0,1.2e-09,1.020997123641318
2.48e-09,0,2.48e-09,1.020997123641318
4e-09,0,4e-09,1.020997123641318
4.05e-09,0.2499999999999981,4.05e-09,1.025015475552849
4.06875e-09,0.3437499999999968,4.06875e-09,1.025366639071272
4.106249999999999e-09,0.5312499999999944,4.106249999999999e-09,1.00448372085478
4.106982421874999e-09,0.5349121093749941,4.106982421874999e-09,1.00141822972541
4.108447265624999e-09,0.5422363281249937,4.108447265624999e-09,0.9898096603626635
4.111376953124999e-09,0.5568847656249927,4.111376953124999e-09,0.8154322331393636
4.112841796874999e-09,0.5642089843749922,4.112841796874999e-09,0.6233491773669178
4.115771484374999e-09,0.5788574218749912,4.115771484374999e-09,0.1390429985277025
4.121630859374998e-09,0.6081542968749893,4.121630859374998e-09,0.03941898641802636
4.124560546874998e-09,0.6228027343749883,4.124560546874998e-09,0.04072461528651141
4.130419921874998e-09,0.6520996093749865,4.130419921874998e-09,0.02214747404274387
4.142138671874997e-09,0.7106933593749826,4.142138671874997e-09,0.01602532362400876
4.165576171874995e-09,0.8278808593749748,4.165576171874995e-09,0.003126321197594939
4.2e-09,1,4.2e-09,0.001812456360720653
4.268847656250011e-09,1,4.268847656250011e-09,0.0005411157173149225
4.406542968750031e-09,1,4.406542968750031e-09,0.0005410263239374858
4.670712020508513e-09,1,4.670712020508513e-09,0.000541913376250128
5.199050124025477e-09,1,5.199050124025477e-09,0.0005410303419342682
6.255726331059404e-09,1,6.255726331059404e-09,0.0005419132555001512
7.855726331059404e-09,1,7.855726331059404e-09,0.0005410304087589744
9.455726331059404e-09,1,9.455726331059404e-09,0.0005419132023474102
1.10557263310594e-08,1,1.10557263310594e-08,0.0005410304619089826
1.26557263310594e-08,1,1.26557263310594e-08,0.0005419131492006523
1.4e-08,1,1.4e-08,0.0005410305201070714
1.405e-08,0.7499999999999896,1.405e-08,0.009038594764192656
1.406875e-08,0.656249999999999,1.406875e-08,0.02329280191335942
1.4078125e-08,0.6093749999999956,1.4078125e-08,0.04281984944733672
1.40828125e-08,0.5859374999999938,1.40828125e-08,0.07218136014327568
1.40921875e-08,0.5390624999999902,1.40921875e-08,0.824578399461886
1.4093359375e-08,0.5332031249999939,1.4093359375e-08,0.9460535744673546
1.40939453125e-08,0.530273437500004,1.40939453125e-08,0.9925656803254196
1.409423828125e-08,0.5288085937500009,1.409423828125e-08,1.003687787693756
1.409482421875e-08,0.5258789062500109,1.409482421875e-08,1.005883760158293
1.40951171875e-08,0.5244140625000242,1.40951171875e-08,1.006199342059616
1.4095703125e-08,0.5214843750000344,1.4095703125e-08,1.007794382599095
1.409687499999999e-08,0.5156250000000546,1.409687499999999e-08,1.010450059266229
1.409921874999998e-08,0.503906250000095,1.409921874999998e-08,1.015897174550909
1.410390624999997e-08,0.4804687500001761,1.410390624999997e-08,1.020074406579079
1.411328124999994e-08,0.433593750000338,1.411328124999994e-08,1.024810780918419
1.413203124999987e-08,0.3398437500006618,1.413203124999987e-08,1.02515356950769
1.416953124999974e-08,0.1523437500013095,1.416953124999974e-08,1.022128270213843
1.42e-08,0,1.42e-08,1.022514007772275
1.426093750000053e-08,0,1.426093750000053e-08,1.020997874692553
1.438281250000158e-08,0,1.438281250000158e-08,1.020996385000438
1.462084811464223e-08,0,1.462084811464223e-08,1.020997867372727
1.509691934392353e-08,0,1.509691934392353e-08,1.020996380098381
1.604906180248614e-08,0,1.604906180248614e-08,1.020997867090048
1.764906180248614e-08,0,1.764906180248614e-08,1.02099638024865
1.924906180248614e-08,0,1.924906180248614e-08,1.020997866977932
2.084906180248614e-08,0,2.084906180248614e-08,1.020996380360756
2.244906180248614e-08,0,2.244906180248614e-08,1.020997866865834
2.4e-08,0,2.4e-08,1.020996380474618
2.405e-08,0.2500000000000022,2.405e-08,1.025015474964955
2.406875e-08,0.3437500000000093,2.406875e-08,1.025366639690851
2.410625e-08,0.5312500000000233,2.410625e-08,1.00448371995964
2.411796875e-08,0.5898437500000194,2.411796875e-08,0.08727260870495657
2.414140625e-08,0.7070312500000118,2.414140625e-08,0.01077477210577085
2.4170703125e-08,0.8535156250000021,2.4170703125e-08,0.005817247288690575
2.417802734375e-08,0.8901367187499997,2.417802734375e-08,0.0003816859954995991
2.4189013671875e-08,0.9450683593749878,2.4189013671875e-08,0.003211452408229113
2.42e-08,0.9999999999999923,2.42e-08,-0.001142246917271451
2.422197265625e-08,1,2.422197265625e-08,0.000539675651480915
2.426591796875e-08,1,2.426591796875e-08,0.0005427561052062033
2.428789062500001e-08,1,2.428789062500001e-08,0.0005401931505635495
2.433183593750001e-08,1,2.433183593750001e-08,0.0005427476871302386
2.441972656250002e-08,1,2.441972656250002e-08,0.0005401973480285398
2.459550781250003e-08,1,2.459550781250003e-08,0.0005427455913046304
2.494707031250006e-08,1,2.494707031250006e-08,0.0005401983953165016
2.565019531250012e-08,1,2.565019531250012e-08,0.0005427450678862006
2.705644531250024e-08,1,2.705644531250024e-08,0.0005401986570039376
2.865644531250024e-08,1,2.865644531250024e-08,0.0005427449040234774
3.025644531250024e-08,1,3.025644531250024e-08,0.0005401988103060715
3.185644531250024e-08,1,3.185644531250024e-08,0.0005427447507320564
3.292822265625012e-08,1,3.292822265625012e-08,0.0005401990013581171
3.4e-08,1,3.4e-08,0.0005427445219253247
3.405e-08,0.750000000000006,3.405e-08,0.009038596076512336
3.406875000000001e-08,0.656249999999999,3.406875000000001e-08,0.02329280227065844
3.407812500000001e-08,0.6093749999999956,3.407812500000001e-08,0.04281984894542204
3.408281250000001e-08,0.5859374999999771,3.408281250000001e-08,0.07218136138739641
3.409218750000002e-08,0.5390624999999405,3.409218750000002e-08,0.8245783937739083
3.409335937500002e-08,0.5332031249999277,3.409335937500002e-08,0.9460535725623663
3.409394531250002e-08,0.5302734374999213,3.409394531250002e-08,0.9925656790713383
3.409423828125002e-08,0.5288085937499181,3.409423828125002e-08,1.00368778738321
3.409482421875002e-08,0.5258789062499116,3.409482421875002e-08,1.005883760358129
3.409511718750002e-08,0.5244140624999085,3.409511718750002e-08,1.006199341978091
3.409570312500002e-08,0.5214843749999021,3.409570312500002e-08,1.007794382652615
3.409687500000003e-08,0.5156249999998892,3.409687500000003e-08,1.010450059224314
3.409921875000003e-08,0.5039062499998634,3.409921875000003e-08,1.015897174588041
3.410390625000004e-08,0.480468749999812,3.410390625000004e-08,1.02007440654548
3.411328125000006e-08,0.4335937499997093,3.411328125000006e-08,1.024810780948792
3.41320312500001e-08,0.3398437499995037,3.41320312500001e-08,1.025153569482403
3.416953125000019e-08,0.1523437499990926,3.416953125000019e-08,1.022128270233968
3.42e-08,1.587618925213974e-14,3.42e-08,1.02251400775521
3.426093749999963e-08,0,3.426093749999963e-08,1.020997874692544
3.438281249999889e-08,0,3.438281249999889e-08,1.020996385000446
3.462084811863579e-08,0,3.462084811863579e-08,1.02099786737272
3.509691935590959e-08,0,3.509691935590959e-08,1.020996380098388
3.604906183045718e-08,0,3.604906183045718e-08,1.02099786709004
3.764906183045719e-08,0,3.764906183045719e-08,1.020996380248657
3.924906183045719e-08,0,3.924906183045719e-08,1.020997866977924
4.084906183045719e-08,0,4.084906183045719e-08,1.020996380360764
4.244906183045719e-08,0,4.244906183045719e-08,1.020997866865827
4.4e-08,0,4.4e-08,1.020996380474626
4.405e-08,0.2499999999999857,4.405e-08,1.025015474964955
4.406875e-08,0.3437499999999927,4.406875e-08,1.025366639690851
4.410625e-08,0.5312500000000068,4.410625e-08,1.004483719959648
4.411796875e-08,0.5898437500000029,4.411796875e-08,0.0872726087049947
4.414140625e-08,0.7070312499999952,4.414140625e-08,0.01077477210577277
4.4170703125e-08,0.8535156249999855,4.4170703125e-08,0.005817247288691189
4.417802734375e-08,0.8901367187499666,4.417802734375e-08,0.0003816859955004248
4.4189013671875e-08,0.9450683593749711,4.4189013671875e-08,0.003211452408229481
4.42e-08,0.9999999999999758,4.42e-08,-0.001142246917271307
4.422197265625e-08,1,4.422197265625e-08,0.0005396756514809279
4.426591796875e-08,1,4.426591796875e-08,0.0005427561052061824
4.428789062500001e-08,1,4.428789062500001e-08,0.0005401931505635699
4.433183593750001e-08,1,4.433183593750001e-08,0.0005427476871302185
4.441972656250002e-08,1,4.441972656250002e-08,0.0005401973480285599
4.459550781250003e-08,1,4.459550781250003e-08,0.0005427455913046104
4.494707031250006e-08,1,4.494707031250006e-08,0.0005401983953165218
4.565019531250012e-08,1,4.565019531250012e-08,0.0005427450678861806
4.705644531250024e-08,1,4.705644531250024e-08,0.0005401986570039576
4.865644531250024e-08,1,4.865644531250024e-08,0.0005427449040234575
5.025644531250024e-08,1,5.025644531250024e-08,0.0005401988103060915
5.185644531250024e-08,1,5.185644531250024e-08,0.0005427447507320363
5.292822265625013e-08,1,5.292822265625013e-08,0.0005401990013581372
5.400000000000001e-08,1,5.400000000000001e-08,0.0005427445219253047
5.405000000000001e-08,0.7499999999999729,5.405000000000001e-08,0.009038596076515259
5.406875000000001e-08,0.6562499999999659,5.406875000000001e-08,0.02329280227066709
5.407812500000001e-08,0.6093749999999625,5.407812500000001e-08,0.04281984894544259
5.408281250000002e-08,0.585937499999944,5.408281250000002e-08,0.07218136138746629
5.409218750000002e-08,0.5390624999999074,5.409218750000002e-08,0.8245783937741964
5.409335937500003e-08,0.5332031249998946,5.409335937500003e-08,0.9460535725627495
5.409394531250003e-08,0.5302734374998882,5.409394531250003e-08,0.9925656790717127
5.409423828125003e-08,0.528808593749885,5.409423828125003e-08,1.003687787383326
5.409482421875003e-08,0.5258789062498785,5.409482421875003e-08,1.005883760358081
5.409511718750003e-08,0.5244140624998754,5.409511718750003e-08,1.006199341978133
5.409570312500003e-08,0.521484374999869,5.409570312500003e-08,1.007794382652613
5.409687500000003e-08,0.5156249999998561,5.409687500000003e-08,1.010450059224343
5.409921875000004e-08,0.5039062499998304,5.409921875000004e-08,1.015897174588044
5.410390625000005e-08,0.480468749999779,5.410390625000005e-08,1.020074406545495
5.411328125000007e-08,0.4335937499996763,5.411328125000007e-08,1.024810780948784
5.413203125000011e-08,0.3398437499994706,5.413203125000011e-08,1.02515356948241
5.416953125000019e-08,0.1523437499990595,5.416953125000019e-08,1.022128270233961
5.420000000000001e-08,0,5.420000000000001e-08,1.022514007755216
5.426093749999964e-08,0,5.426093749999964e-08,1.020997874692544
5.43828124999989e-08,0,5.43828124999989e-08,1.020996385000446
5.462084811863482e-08,0,5.462084811863482e-08,1.02099786737272
5.509691935590666e-08,0,5.509691935590666e-08,1.020996380098388
5.604906183045034e-08,0,5.604906183045034e-08,1.02099786709004
5.764906183045034e-08,0,5.764906183045034e-08,1.020996380248657
5.924906183045034e-08,0,5.924906183045034e-08,1.020997866977924
6.084906183045033e-08,0,6.084906183045033e-08,1.020996380360764
6.244906183045033e-08,0,6.244906183045033e-08,1.020997866865827
6.4e-08,0,6.4e-08,1.020996380474626
6.405000000000001e-08,0.2500000000000188,6.405000000000001e-08,1.025015474964955
6.406875000000001e-08,0.3437500000000258,6.406875000000001e-08,1.02536663969085
6.410625000000001e-08,0.5312500000000399,6.410625000000001e-08,1.004483719959632
6.411796875000001e-08,0.589843750000036,6.411796875000001e-08,0.0872726087049186
6.414140625000001e-08,0.7070312500000283,6.414140625000001e-08,0.01077477210576889
6.417070312500001e-08,0.8535156250000187,6.417070312500001e-08,0.005817247288689985
6.417802734375e-08,0.8901367187499997,6.417802734375e-08,0.0003816859954996095
6.4189013671875e-08,0.9450683593750043,6.4189013671875e-08,0.003211452408228766
6.420000000000001e-08,1,6.420000000000001e-08,-0.001142246917271554
6.422197265625001e-08,1,6.422197265625001e-08,0.0005396756514809088
6.426591796875001e-08,1,6.426591796875001e-08,0.0005427561052062102
6.428789062500001e-08,1,6.428789062500001e-08,0.0005401931505635428
6.433183593750002e-08,1,6.433183593750002e-08,0.0005427476871302453
6.441972656250002e-08,1,6.441972656250002e-08,0.0005401973480285333
6.459550781250004e-08,1,6.459550781250004e-08,0.0005427455913046371
6.494707031250007e-08,1,6.494707031250007e-08,0.000540198395316495
6.565019531250013e-08,1,6.565019531250013e-08,0.0005427450678862073
6.705644531250025e-08,1,6.705644531250025e-08,0.0005401986570039309
6.865644531250025e-08,1,6.865644531250025e-08,0.0005427449040234842
7.025644531250025e-08,1,7.025644531250025e-08,0.0005401988103060648
7.185644531250025e-08,1,7.185644531250025e-08,0.0005427447507320631
7.292822265625012e-08,1,7.292822265625012e-08,0.0005401990013581105
7.4e-08,1,7.4e-08,0.0005427445219253315
7.405e-08,0.750000000000006,7.405e-08,0.009038596076512336
7.406875000000001e-08,0.656249999999999,7.406875000000001e-08,0.02329280227065844
7.407812500000001e-08,0.6093749999999625,7.407812500000001e-08,0.0428198489454427
7.408281250000002e-08,0.585937499999911,7.408281250000002e-08,0.0721813613875365
7.409218750000004e-08,0.5390624999998082,7.409218750000004e-08,0.8245783937751643
7.409335937500005e-08,0.5332031249997954,7.409335937500005e-08,0.9460535725639335
7.409394531250005e-08,0.5302734374997889,7.409394531250005e-08,0.9925656790728586
7.409423828125006e-08,0.5288085937497526,7.409423828125006e-08,1.003687787383766
7.409482421875007e-08,0.52587890624968,7.409482421875007e-08,1.005883760357941
7.409511718750008e-08,0.5244140624996437,7.409511718750008e-08,1.006199341978341
7.409570312500009e-08,0.5214843749995712,7.409570312500009e-08,1.007794382652695
7.409687500000012e-08,0.515624999999426,7.409687500000012e-08,1.010450059224593
7.409921875000018e-08,0.5039062499991356,7.409921875000018e-08,1.01589717458831
7.410390625000029e-08,0.4804687499985548,7.410390625000029e-08,1.020074406545693
7.411328125000053e-08,0.4335937499973932,7.411328125000053e-08,1.024810780948811
7.413203125000099e-08,0.3398437499950701,7.413203125000099e-08,1.025153569482466
7.416953125000192e-08,0.1523437499904238,7.416953125000192e-08,1.022128270233644
7.42e-08,1.587618925213974e-14,7.42e-08,1.02251400775564
7.426093749999617e-08,0,7.426093749999617e-08,1.020997874692544
7.438281249998849e-08,0,7.438281249998849e-08,1.020996385000446
7.462084811860328e-08,0,7.462084811860328e-08,1.02099786737272
7.509691935583286e-08,0,7.509691935583286e-08,1.020996380098388
7.604906183029202e-08,0,7.604906183029202e-08,1.020997867090041
7.764906183029202e-08,0,7.764906183029202e-08,1.020996380248657
7.882453091514601e-08,0,7.882453091514601e-08,1.020997866957681
8e-08,0,8e-08,1.020996380401247
