;Version, 1, 0
;/net3,;/Vout,;/net7
;X, Y,;X, Y,;X, Y
;Re, Re,;Re, Re,;Re, Re
;time, V,;time, V,;time, V
;s, V,;s, V,;s, V
0,0,0,1.02099712367248,0,0
8.000000000000001e-11,0.08,8.000000000000001e-11,1.022743348367614,8.000000000000001e-11,0.08
2.4e-10,0.24,2.4e-10,1.024648129746098,2.4e-10,0.24
2.946474441500861e-10,0.2946474441500861,2.946474441500861e-10,1.025438260377498,2.946474441500861e-10,0.2946474441500861
3.219711662251292e-10,0.3219711662251292,3.219711662251292e-10,1.025406877128065,3.219711662251292e-10,0.3219711662251292
3.356330272626508e-10,0.3356330272626508,3.356330272626508e-10,1.025614794860718,3.356330272626508e-10,0.3356330272626508
3.629567493376938e-10,0.3629567493376938,3.629567493376938e-10,1.02542797409674,3.629567493376938e-10,0.3629567493376938
3.766186103752153e-10,0.3766186103752153,3.766186103752153e-10,1.02576557782609,3.766186103752153e-10,0.3766186103752153
3.834495408939761e-10,0.3834495408939761,3.834495408939761e-10,1.025684028255797,3.834495408939761e-10,0.3834495408939761
3.971114019314976e-10,0.3971114019314976,3.971114019314976e-10,1.025834974035999,3.971114019314976e-10,0.3971114019314976
4.039423324502584e-10,0.4039423324502583,4.039423324502584e-10,1.025761567695853,4.039423324502584e-10,0.4039423324502583
4.176041934877799e-10,0.4176041934877799,4.176041934877799e-10,1.0259426135296,4.176041934877799e-10,0.4176041934877799
4.449279155628229e-10,0.4449279155628229,4.449279155628229e-10,1.025946918762349,4.449279155628229e-10,0.4449279155628229
4.585897766003445e-10,0.4585897766003444,4.585897766003445e-10,1.025869243099572,4.585897766003445e-10,0.4585897766003444
4.859134986753875e-10,0.4859134986753875,4.859134986753875e-10,1.024829486703046,4.859134986753875e-10,0.4859134986753875
5.405609428254736e-10,0.5405609428254736,5.405609428254736e-10,1.020575130140035,5.405609428254736e-10,0.5405609428254736
5.678846649005166e-10,0.5678846649005166,5.678846649005166e-10,1.014567650969513,5.678846649005166e-10,0.5678846649005166
6.225321090506027e-10,0.6225321090506027,6.225321090506027e-10,0.7989653192963576,6.225321090506027e-10,0.6225321090506027
7.318269973507749e-10,0.7318269973507748,7.318269973507749e-10,0.04666186798802212,7.318269973507749e-10,0.7318269973507748
8.659134986753875e-10,0.8659134986753875,8.659134986753875e-10,0.01216416359712902,8.659134986753875e-10,0.8659134986753875
8.994351240065406e-10,0.8994351240065406,8.994351240065406e-10,0.008496472151948683,8.994351240065406e-10,0.8994351240065406
9.497175620032703e-10,0.9497175620032703,9.497175620032703e-10,0.004374996736644071,9.497175620032703e-10,0.9497175620032703
1e-09,1,1e-09,0.002329372677100399,1e-09,1
1.10056487599346e-09,1,1.10056487599346e-09,0.002166299856850058,1.10056487599346e-09,1
1.301694627980378e-09,1,1.301694627980378e-09,0.002166397130199767,1.301694627980378e-09,1
1.703954131954216e-09,1,1.703954131954216e-09,0.002165998612970289,1.703954131954216e-09,1
2.508473139901892e-09,1,2.508473139901892e-09,0.00216603896257417,2.508473139901892e-09,1
3.754236569950946e-09,1,3.754236569950946e-09,0.002166301545329453,3.754236569950946e-09,1
4.999999999999999e-09,1,4.999999999999999e-09,0.002166039015147808,4.999999999999999e-09,1
5.249999999999999e-09,0.7500000000000002,5.249999999999999e-09,0.01662850493237758,5.249999999999999e-09,1
5.343749999999999e-09,0.6562499999999998,5.343749999999999e-09,0.03672102925387468,5.343749999999999e-09,1
5.390625e-09,0.6093749999999996,5.390625e-09,0.06517384872659303,5.390625e-09,1
5.4140625e-09,0.5859374999999996,5.4140625e-09,0.1335720252455409,5.4140625e-09,1
5.42578125e-09,0.5742187499999994,5.42578125e-09,0.3717291066409671,5.42578125e-09,1
5.44921875e-09,0.5507812499999993,5.44921875e-09,0.9279608231399706,5.44921875e-09,1
5.4521484375e-09,0.5478515624999996,5.4521484375e-09,0.9660343491890528,5.4521484375e-09,1
5.458007812499999e-09,0.5419921875,5.458007812499999e-09,1.001483716676291,5.458007812499999e-09,1
5.460937499999999e-09,0.5390625000000002,5.460937499999999e-09,1.002774790574434,5.460937499999999e-09,1
5.466796874999999e-09,0.5332031250000006,5.466796874999999e-09,1.005415340158834,5.466796874999999e-09,1
5.478515624999998e-09,0.5214843750000013,5.478515624999998e-09,1.010371646285359,5.478515624999998e-09,1
5.501953124999996e-09,0.4980468750000029,5.501953124999996e-09,1.018519643655586,5.501953124999996e-09,1
5.548828124999993e-09,0.451171875000006,5.548828124999993e-09,1.024608212551359,5.548828124999993e-09,1
5.572265624999992e-09,0.4277343750000075,5.572265624999992e-09,1.025163651415918,5.572265624999992e-09,1
5.619140624999989e-09,0.3808593750000105,5.619140624999989e-09,1.02539909362033,5.619140624999989e-09,1
5.712890624999983e-09,0.2871093750000168,5.712890624999983e-09,1.025431062949488,5.712890624999983e-09,1
5.85644531249999e-09,0.1435546875000089,5.85644531249999e-09,1.022566752940118,5.85644531249999e-09,1
5.999999999999999e-09,0,5.999999999999999e-09,1.021489872704856,5.999999999999999e-09,1
6.287109375000017e-09,0,6.287109375000017e-09,1.021018034446918,6.287109375000017e-09,1
6.840968851137666e-09,0,6.840968851137666e-09,1.021017904563014,6.840968851137666e-09,1
7.948687803412964e-09,0,7.948687803412964e-09,1.021018033877818,7.948687803412964e-09,1
8.974343901706482e-09,0,8.974343901706482e-09,1.02101790447588,8.974343901706482e-09,1
1e-08,0,1e-08,1.0210180338578,1e-08,1
1.025e-08,0.2500000000000006,1.025e-08,1.024397346112551,1.025e-08,0.7500000000000011
1.0625e-08,0.6250000000000006,1.0625e-08,1.025469184425794,1.0625e-08,0.3750000000000011
1.1e-08,1,1.1e-08,1.021011922106559,1.1e-08,9.992007221626409e-16
1.11875e-08,1,1.11875e-08,1.021018046575674,1.11875e-08,0
1.15625e-08,1,1.15625e-08,1.021017891682832,1.15625e-08,0
1.173022743986819e-08,1,1.173022743986819e-08,1.02101790058785,1.173022743986819e-08,0
1.181409115980228e-08,1,1.181409115980228e-08,1.021017861610784,1.181409115980228e-08,0
1.198181859967048e-08,1,1.198181859967048e-08,1.021017958496494,1.198181859967048e-08,0
1.231727347940686e-08,1,1.231727347940686e-08,1.021018011229931,1.231727347940686e-08,0
1.298818323887962e-08,1,1.298818323887962e-08,1.021017927133143,1.298818323887962e-08,0
1.320436785295579e-08,1,1.320436785295579e-08,1.021018029431904,1.320436785295579e-08,0
1.363673708110813e-08,1,1.363673708110813e-08,1.021017920851224,1.363673708110813e-08,0
1.431836854055407e-08,1,1.431836854055407e-08,1.021018017441389,1.431836854055407e-08,0
1.5e-08,1,1.5e-08,1.021017920873915,1.5e-08,0
1.525e-08,0.7499999999999987,1.525e-08,1.020984914935154,1.525e-08,0
1.52734375e-08,0.7265625000000002,1.52734375e-08,1.020772937061357,1.52734375e-08,0
1.53203125e-08,0.6796875000000033,1.53203125e-08,1.021003948431362,1.53203125e-08,0
1.541406249999999e-08,0.5859375000000094,1.541406249999999e-08,1.022419496240708,1.541406249999999e-08,0
1.560156249999998e-08,0.3984375000000219,1.560156249999998e-08,1.022799441449251,1.560156249999998e-08,0
1.580078124999999e-08,0.1992187500000085,1.580078124999999e-08,1.02216534777345,1.580078124999999e-08,0
1.6e-08,0,1.6e-08,1.020975465218143,1.6e-08,0
1.639843750000002e-08,0,1.639843750000002e-08,1.020997122290044,1.639843750000002e-08,0
1.701622227549185e-08,0,1.701622227549185e-08,1.02099712571855,1.701622227549185e-08,0
1.825179182647551e-08,0,1.825179182647551e-08,1.020997121691146,1.825179182647551e-08,0
1.912589591323776e-08,0,1.912589591323776e-08,1.02099712571804,1.912589591323776e-08,0
2e-08,0,2e-08,1.020997121691648,2e-08,0
2.025e-08,0.2499999999999989,2.025e-08,1.024915854007235,2.025e-08,0.2499999999999989
2.0625e-08,0.6250000000000006,2.0625e-08,0.7581021304425224,2.0625e-08,0.6250000000000006
2.071875e-08,0.718750000000001,2.071875e-08,0.05427982017374239,2.071875e-08,0.718750000000001
2.0859375e-08,0.8593749999999983,2.0859375e-08,0.01250509207813928,2.0859375e-08,0.8593749999999983
2.1e-08,0.999999999999999,2.1e-08,0.002734649443878931,2.1e-08,0.999999999999999
2.128125e-08,1,2.128125e-08,0.002166320295204087,2.128125e-08,1
2.138940242883251e-08,1,2.138940242883251e-08,0.002166016637359851,2.138940242883251e-08,1
2.160570728649753e-08,1,2.160570728649753e-08,0.002166293865652888,2.160570728649753e-08,1
2.203831700182758e-08,1,2.203831700182758e-08,0.002166016942569331,2.203831700182758e-08,1
2.290353643248766e-08,1,2.290353643248766e-08,0.002166323516041784,2.290353643248766e-08,1
2.395176821624383e-08,1,2.395176821624383e-08,0.002166017045965828,2.395176821624383e-08,1
2.5e-08,1,2.5e-08,0.002166323428342559,2.5e-08,1
2.525e-08,0.7500000000000019,2.525e-08,0.01663217148535899,2.525e-08,1
2.534375e-08,0.6562500000000016,2.534375e-08,0.03672103992075837,2.534375e-08,1
2.5390625e-08,0.6093750000000013,2.5390625e-08,0.06517382011396801,2.5390625e-08,1
2.54140625e-08,0.5859374999999996,2.54140625e-08,0.1335721216630829,2.54140625e-08,1
2.542578125e-08,0.5742187500000002,2.542578125e-08,0.3717288617112651,2.542578125e-08,1
2.544921875e-08,0.5507812500000018,2.544921875e-08,0.9279609161822491,2.544921875e-08,1
2.54521484375e-08,0.547851562500002,2.54521484375e-08,0.9660343727244881,2.54521484375e-08,1
2.54580078125e-08,0.5419921875000024,2.54580078125e-08,1.001483715792448,2.54580078125e-08,1
2.54609375e-08,0.5390625000000027,2.54609375e-08,1.002774791356912,2.54609375e-08,1
2.5466796875e-08,0.533203125000003,2.5466796875e-08,1.005415339431233,2.5466796875e-08,1
2.5478515625e-08,0.5214843750000038,2.5478515625e-08,1.010371646976292,2.5478515625e-08,1
2.550195312499999e-08,0.4980468750000053,2.550195312499999e-08,1.018519643020181,2.550195312499999e-08,1
2.554882812499999e-08,0.4511718750000084,2.554882812499999e-08,1.024608213137199,2.554882812499999e-08,1
2.557226562499999e-08,0.42773437500001,2.557226562499999e-08,1.025163650869078,2.557226562499999e-08,1
2.561914062499999e-08,0.3808593750000131,2.561914062499999e-08,1.02539909411439,2.561914062499999e-08,1
2.571289062499998e-08,0.2871093750000193,2.571289062499998e-08,1.025431062506196,2.571289062499998e-08,1
2.585644531249999e-08,0.1435546875000089,2.585644531249999e-08,1.022566753312071,2.585644531249999e-08,1
2.6e-08,1.887379141862766e-15,2.6e-08,1.021489872384439,2.6e-08,1
2.628710937500001e-08,0,2.628710937500001e-08,1.021018034446874,2.628710937500001e-08,1
2.684096885113766e-08,0,2.684096885113766e-08,1.02101790456306,2.684096885113766e-08,1
2.794868780341297e-08,0,2.794868780341297e-08,1.021018033877772,2.794868780341297e-08,1
2.897434390170649e-08,0,2.897434390170649e-08,1.021017904475926,2.897434390170649e-08,1
3e-08,0,3e-08,1.021018033857754,3e-08,1
3.025e-08,0.2499999999999989,3.025e-08,1.024397346112551,3.025e-08,0.7499999999999994
3.0625e-08,0.6250000000000006,3.0625e-08,1.025469184425794,3.0625e-08,0.3749999999999978
3.100000000000001e-08,1,3.100000000000001e-08,1.021011920653923,3.100000000000001e-08,0
3.118750000000001e-08,1,3.118750000000001e-08,1.021018062833612,3.118750000000001e-08,0
3.156250000000001e-08,1,3.156250000000001e-08,1.021017880979898,3.156250000000001e-08,0
3.172003609183937e-08,1,3.172003609183937e-08,1.02101784953827,3.172003609183937e-08,0
3.179880413775905e-08,1,3.179880413775905e-08,1.021017945798631,3.179880413775905e-08,0
3.195634022959842e-08,1,3.195634022959842e-08,1.02101816819776,3.195634022959842e-08,0
3.227141241327715e-08,1,3.227141241327715e-08,1.021017771748682,3.227141241327715e-08,0
3.239604581789345e-08,1,3.239604581789345e-08,1.021017911469154,3.239604581789345e-08,0
3.264531262712605e-08,1,3.264531262712605e-08,1.021017928011551,3.264531262712605e-08,0
3.314384624559124e-08,1,3.314384624559124e-08,1.021018029503608,3.314384624559124e-08,0
3.394019754401213e-08,1,3.394019754401213e-08,1.021017910934458,3.394019754401213e-08,0
3.447009877200607e-08,1,3.447009877200607e-08,1.021017913415219,3.447009877200607e-08,0
3.460257407900455e-08,1,3.460257407900455e-08,1.021017922714018,3.460257407900455e-08,0
3.480128703950228e-08,1,3.480128703950228e-08,1.021017956698034,3.480128703950228e-08,0
3.500000000000001e-08,1,3.500000000000001e-08,1.021018133047796,3.500000000000001e-08,0
3.539742592099547e-08,0.6025740790045337,3.539742592099547e-08,1.022344130062814,3.539742592099547e-08,0
3.541625636096436e-08,0.5837436390356423,3.541625636096436e-08,1.022392304582124,3.541625636096436e-08,0
3.545391724090214e-08,0.5460827590978597,3.545391724090214e-08,1.022543355180705,3.545391724090214e-08,0
3.552923900077771e-08,0.4707609992222945,3.552923900077771e-08,1.022739275485078,3.552923900077771e-08,0
3.567988252052884e-08,0.3201174794711641,3.567988252052884e-08,1.022847581960166,3.567988252052884e-08,0
3.583994126026443e-08,0.1600587397355779,3.583994126026443e-08,1.021844333952774,3.583994126026443e-08,0
3.600000000000001e-08,0,3.600000000000001e-08,1.021145431331389,3.600000000000001e-08,0
3.632011747947118e-08,0,3.632011747947118e-08,1.020997136341018,3.632011747947118e-08,0
3.689443702354055e-08,0,3.689443702354055e-08,1.020997111257193,3.689443702354055e-08,0
3.804307611167929e-08,0,3.804307611167929e-08,1.020997136158218,3.804307611167929e-08,0
3.902153805583964e-08,0,3.902153805583964e-08,1.020997111252319,3.902153805583964e-08,0
4e-08,0,4e-08,1.020997136155444,4e-08,0
4.025e-08,0.2499999999999989,4.025e-08,1.024915849272753,4.025e-08,0.2499999999999989
4.034375e-08,0.3437499999999993,4.034375e-08,1.025501657617286,4.034375e-08,0.3437499999999993
4.0390625e-08,0.3906249999999962,4.0390625e-08,1.025877355871585,4.0390625e-08,0.3906249999999962
4.04140625e-08,0.4140624999999947,4.04140625e-08,1.025714001321324,4.04140625e-08,0.4140624999999947
4.042578124999999e-08,0.4257812499999939,4.042578124999999e-08,1.026058933088556,4.042578124999999e-08,0.4257812499999939
4.044921874999999e-08,0.4492187499999923,4.044921874999999e-08,1.025888672890537,4.044921874999999e-08,0.4492187499999923
4.049609374999999e-08,0.4960937499999893,4.049609374999999e-08,1.024533867628405,4.049609374999999e-08,0.4960937499999893
4.058984374999998e-08,0.589843749999983,4.058984374999998e-08,1.00715288563677,4.058984374999998e-08,0.589843749999983
4.077734374999997e-08,0.7773437499999707,4.077734374999997e-08,0.03069510879583999,4.077734374999997e-08,0.7773437499999707
4.1e-08,1,4.1e-08,0.001552939810844022,4.1e-08,1
4.133040602835226e-08,1,4.133040602835226e-08,0.002166019060320822,4.133040602835226e-08,1
4.17602718707452e-08,1,4.17602718707452e-08,0.002166306915368673,4.17602718707452e-08,1
4.262000355553108e-08,1,4.262000355553108e-08,0.002166031998637084,4.262000355553108e-08,1
4.381000177776554e-08,1,4.381000177776554e-08,0.002166306828261771,4.381000177776554e-08,1
4.500000000000001e-08,1,4.500000000000001e-08,0.002166033726497523,4.500000000000001e-08,1
4.525e-08,0.7499999999999953,4.525e-08,0.01663217137317168,4.525e-08,1
4.534375000000001e-08,0.6562499999999949,4.534375000000001e-08,0.03672104008826923,4.534375000000001e-08,1
4.5390625e-08,0.609374999999998,4.5390625e-08,0.0651738197168316,4.5390625e-08,1
4.54140625e-08,0.5859374999999996,4.54140625e-08,0.1335721230039118,4.54140625e-08,1
4.542578125e-08,0.5742187500000002,4.542578125e-08,0.37172885826918,4.542578125e-08,1
4.544921875e-08,0.5507812500000018,4.544921875e-08,0.9279609173066508,4.544921875e-08,1
4.54521484375e-08,0.547851562500002,4.54521484375e-08,0.9660343730083715,4.54521484375e-08,1
4.54580078125e-08,0.5419921875000024,4.54580078125e-08,1.001483715781927,4.54580078125e-08,1
4.54609375e-08,0.5390625000000027,4.54609375e-08,1.002774791366224,4.54609375e-08,1
4.5466796875e-08,0.533203125000003,4.5466796875e-08,1.005415339422625,4.5466796875e-08,1
4.5478515625e-08,0.5214843750000038,4.5478515625e-08,1.010371646984517,4.5478515625e-08,1
4.550195312499999e-08,0.4980468750000053,4.550195312499999e-08,1.018519643008776,4.550195312499999e-08,1
4.554882812499999e-08,0.4511718750000084,4.554882812499999e-08,1.0246082131477,4.554882812499999e-08,1
4.557226562499999e-08,0.42773437500001,4.557226562499999e-08,1.025163650857996,4.557226562499999e-08,1
4.561914062499999e-08,0.3808593750000131,4.561914062499999e-08,1.025399094124651,4.561914062499999e-08,1
4.571289062499998e-08,0.2871093750000193,4.571289062499998e-08,1.02543106249695,4.571289062499998e-08,1
4.585644531249999e-08,0.1435546875000089,4.585644531249999e-08,1.022566753319827,4.585644531249999e-08,1
4.600000000000001e-08,0,4.600000000000001e-08,1.021489872377759,4.600000000000001e-08,1
4.628710937500004e-08,0,4.628710937500004e-08,1.021018034446873,4.628710937500004e-08,1
4.684098898782941e-08,0,4.684098898782941e-08,1.021017904563119,4.684098898782941e-08,1
4.794874821348814e-08,0,4.794874821348814e-08,1.021018033877719,4.794874821348814e-08,1
4.897437410674407e-08,0,4.897437410674407e-08,1.021017904475979,4.897437410674407e-08,1
5e-08,0,5e-08,1.021018033857701,5e-08,1
5.025e-08,0.2499999999999989,5.025e-08,1.024397346112551,5.025e-08,0.750000000000006
5.0625e-08,0.6250000000000006,5.0625e-08,1.025469184425794,5.0625e-08,0.3750000000000043
5.1e-08,1,5.1e-08,1.021011920653923,5.1e-08,2.664535259100376e-15
5.11875e-08,1,5.11875e-08,1.021018062833612,5.11875e-08,0
5.15625e-08,1,5.15625e-08,1.021017880979898,5.15625e-08,0
5.172004181938643e-08,1,5.172004181938643e-08,1.021017849545018,5.172004181938643e-08,0
5.179881272907964e-08,1,5.179881272907964e-08,1.02101794579477,5.179881272907964e-08,0
5.195635454846607e-08,1,5.195635454846607e-08,1.021018168194449,5.195635454846607e-08,0
5.227143818723892e-08,1,5.227143818723892e-08,1.021017771752015,5.227143818723892e-08,0
5.239607896390767e-08,1,5.239607896390767e-08,1.021017911478284,5.239607896390767e-08,0
5.264536051724518e-08,1,5.264536051724518e-08,1.02101792800342,5.264536051724518e-08,0
5.314392362392021e-08,1,5.314392362392021e-08,1.021018029507528,5.314392362392021e-08,0
5.394033510276805e-08,1,5.394033510276805e-08,1.021017910930401,5.394033510276805e-08,0
5.447016755138403e-08,1,5.447016755138403e-08,1.021017913410997,5.447016755138403e-08,0
5.460262566353802e-08,1,5.460262566353802e-08,1.021017922718005,5.460262566353802e-08,0
5.480131283176901e-08,1,5.480131283176901e-08,1.021017956697167,5.480131283176901e-08,0
5.5e-08,1,5.5e-08,1.021018133069079,5.5e-08,0
5.539737433646198e-08,0.6026256635380131,5.539737433646198e-08,1.022343370347104,5.539737433646198e-08,0
5.541620638844755e-08,0.5837936115524501,5.541620638844755e-08,1.022392281919071,5.541620638844755e-08,0
5.545387049241867e-08,0.5461295075813242,5.545387049241867e-08,1.022543118661485,5.545387049241867e-08,0
5.552919870036092e-08,0.4708012996390724,5.552919870036092e-08,1.022739255344398,5.552919870036092e-08,0
5.567985511624543e-08,0.3201448837545687,5.567985511624543e-08,1.022847357001162,5.567985511624543e-08,0
5.583992755812272e-08,0.1600724418772803,5.583992755812272e-08,1.021844647837134,5.583992755812272e-08,0
5.600000000000001e-08,0,5.600000000000001e-08,1.021145176183621,5.600000000000001e-08,0
5.632014488375458e-08,0,5.632014488375458e-08,1.020997136318269,5.632014488375458e-08,0
5.689450169709427e-08,0,5.689450169709427e-08,1.020997111280437,5.689450169709427e-08,0
5.804321532377364e-08,0,5.804321532377364e-08,1.020997136134949,5.804321532377364e-08,0
5.902160766188682e-08,0,5.902160766188682e-08,1.020997111275585,5.902160766188682e-08,0
5.999999999999999e-08,0,5.999999999999999e-08,1.020997136132181,5.999999999999999e-08,0
6.025e-08,0.2499999999999923,6.025e-08,1.024915849272824,6.025e-08,0.2499999999999923
6.034374999999999e-08,0.3437499999999861,6.034374999999999e-08,1.02550165761745,6.034374999999999e-08,0.3437499999999861
6.039062499999999e-08,0.390624999999983,6.039062499999999e-08,1.025877355871545,6.039062499999999e-08,0.390624999999983
6.041406249999999e-08,0.4140624999999815,6.041406249999999e-08,1.025714001154531,6.041406249999999e-08,0.4140624999999815
6.042578124999999e-08,0.4257812499999807,6.042578124999999e-08,1.026058933280011,6.042578124999999e-08,0.4257812499999807
6.044921874999999e-08,0.4492187499999791,6.044921874999999e-08,1.025888672697306,6.044921874999999e-08,0.4492187499999791
