;Version, 1, 0
;/Vout,;/net7,;/net3
;X, Y,;X, Y,;X, Y
;Re, Re,;Re, Re,;Re, Re
;time, V,;time, V,;time, V
;s, V,;s, V,;s, V
0,1.04147682997704,0,0,0,0
4e-11,1.04357408205245,4e-11,0.04,4e-11,0.04
1.2e-10,1.045934637348119,1.2e-10,0.12,1.2e-10,0.12
2.8e-10,1.048147274306016,2.8e-10,0.28,2.8e-10,0.28
3.56889445889883e-10,1.028860317763787,3.56889445889883e-10,0.356889445889883,3.56889445889883e-10,0.356889445889883
3.665006266261184e-10,1.019932133339843,3.665006266261184e-10,0.3665006266261183,3.665006266261184e-10,0.3665006266261183
3.857229880985891e-10,0.9786994818513879,3.857229880985891e-10,0.3857229880985891,3.857229880985891e-10,0.3857229880985891
3.953341688348245e-10,0.9383430982323858,3.953341688348245e-10,0.3953341688348245,3.953341688348245e-10,0.3953341688348245
4.145565303072952e-10,0.5861937064082179,4.145565303072952e-10,0.4145565303072952,4.145565303072952e-10,0.4145565303072952
4.241677110435306e-10,0.2494757192469937,4.241677110435306e-10,0.4241677110435306,4.241677110435306e-10,0.4241677110435306
4.289733014116483e-10,0.07158048576093078,4.289733014116483e-10,0.4289733014116482,4.289733014116483e-10,0.4289733014116482
4.385844821478836e-10,-0.0005946560421997753,4.385844821478836e-10,0.4385844821478836,4.385844821478836e-10,0.4385844821478836
4.578068436203542e-10,0.01838156897939642,4.578068436203542e-10,0.4578068436203542,4.578068436203542e-10,0.4578068436203542
4.674180243565896e-10,0.003822019142988839,4.674180243565896e-10,0.4674180243565895,4.674180243565896e-10,0.4674180243565895
4.866403858290602e-10,0.004979277305308093,4.866403858290602e-10,0.4866403858290602,4.866403858290602e-10,0.4866403858290602
5.250851087740015e-10,0.00014788946797839,5.250851087740015e-10,0.5250851087740015,5.250851087740015e-10,0.5250851087740015
6.019745546638841e-10,0.0005548534700985889,6.019745546638841e-10,0.6019745546638841,6.019745546638841e-10,0.6019745546638841
6.252107076113817e-10,7.339747842289946e-05,6.252107076113817e-10,0.6252107076113816,6.252107076113817e-10,0.6252107076113816
6.716830135063768e-10,0.0002238564060009935,6.716830135063768e-10,0.6716830135063768,6.716830135063768e-10,0.6716830135063768
7.520673447568367e-10,-2.32724654778564e-05,7.520673447568367e-10,0.7520673447568367,7.520673447568367e-10,0.7520673447568367
7.748670844566826e-10,0.000144228818884045,7.748670844566826e-10,0.7748670844566826,7.748670844566826e-10,0.7748670844566826
8.204665638563744e-10,-1.201516764275993e-05,8.204665638563744e-10,0.8204665638563743,8.204665638563744e-10,0.8204665638563743
8.948465669399186e-10,8.32698338464842e-05,8.948465669399186e-10,0.8948465669399186,8.948465669399186e-10,0.8948465669399186
9.474232834699593e-10,-3.042541121611788e-05,9.474232834699593e-10,0.9474232834699593,9.474232834699593e-10,0.9474232834699593
9.605674626024694e-10,6.792964765027092e-05,9.605674626024694e-10,0.9605674626024694,9.605674626024694e-10,0.9605674626024694
9.802837313012346e-10,-3.152342727491748e-05,9.802837313012346e-10,0.9802837313012346,9.802837313012346e-10,0.9802837313012346
1e-09,6.405449868881823e-05,1e-09,1,1e-09,1
1.039432537397531e-09,6.878462047791288e-07,1.039432537397531e-09,1,1.039432537397531e-09,1
1.118297612192593e-09,6.209832934125923e-07,1.118297612192593e-09,1,1.118297612192593e-09,1
1.150006991267302e-09,6.874065172133534e-07,1.150006991267302e-09,1,1.150006991267302e-09,1
1.21342574941672e-09,6.262208292518086e-07,1.21342574941672e-09,1,1.21342574941672e-09,1
1.340263265715557e-09,6.846995891688466e-07,1.340263265715557e-09,1,1.340263265715557e-09,1
1.59393829831323e-09,6.263967761293811e-07,1.59393829831323e-09,1,1.59393829831323e-09,1
2.101288363508577e-09,6.835587363933235e-07,2.101288363508577e-09,1,2.101288363508577e-09,1
2.901288363508577e-09,6.265093699984057e-07,2.901288363508577e-09,1,2.901288363508577e-09,1
3.701288363508577e-09,6.845183179696552e-07,3.701288363508577e-09,1,3.701288363508577e-09,1
4.350644181754288e-09,6.235297589369656e-07,4.350644181754288e-09,1,4.350644181754288e-09,1
4.999999999999999e-09,6.84428268837207e-07,4.999999999999999e-09,1,4.999999999999999e-09,1
5.031249999999999e-09,-5.798459487492488e-06,5.031249999999999e-09,1,5.031249999999999e-09,0.9687500000000001
5.093749999999999e-09,-6.654800308195973e-06,5.093749999999999e-09,1,5.093749999999999e-09,0.9062500000000004
5.124999999999999e-09,-6.490881518397229e-06,5.124999999999999e-09,1,5.124999999999999e-09,0.8750000000000006
5.140624999999999e-09,-6.540438641430705e-06,5.140624999999999e-09,1,5.140624999999999e-09,0.8593750000000002
5.171875e-09,-8.348641896650147e-06,5.171875e-09,1,5.171875e-09,0.8281249999999996
5.234375000000001e-09,-7.941281040086518e-06,5.234375000000001e-09,1,5.234375000000001e-09,0.7656249999999981
5.359375000000004e-09,-9.162682781009121e-06,5.359375000000004e-09,1,5.359375000000004e-09,0.6406249999999953
5.609375000000009e-09,4.510436006688581e-07,5.609375000000009e-09,1,5.609375000000009e-09,0.3906249999999898
5.999999999999999e-09,6.880820612891274e-06,5.999999999999999e-09,1,5.999999999999999e-09,0
6.781249999999978e-09,7.433887074794893e-06,6.781249999999978e-09,1,6.781249999999978e-09,0
7.380231986493788e-09,7.423613287055181e-06,7.380231986493788e-09,1,7.380231986493788e-09,0
8.180231986493787e-09,7.434607086799024e-06,8.180231986493787e-09,1,8.180231986493787e-09,0
8.980231986493788e-09,7.434631672568867e-06,8.980231986493788e-09,1,8.980231986493788e-09,0
9.490115993246894e-09,7.434607094452428e-06,9.490115993246894e-09,1,9.490115993246894e-09,0
1e-08,7.434631667952186e-06,1e-08,1,1e-08,0
1.0125e-08,1.517720582461996e-05,1.0125e-08,0.8750000000000022,1.0125e-08,0.1249999999999995
1.0375e-08,0.0002896503794877146,1.0375e-08,0.6250000000000033,1.0375e-08,0.3749999999999984
1.0453125e-08,0.0009820906542341811,1.0453125e-08,0.546875000000004,1.0453125e-08,0.4531249999999976
1.0609375e-08,0.0003489912872518721,1.0609375e-08,0.3906250000000056,1.0609375e-08,0.6093749999999961
1.08046875e-08,8.96006978125737e-05,1.08046875e-08,0.1953125000000041,1.08046875e-08,0.8046874999999976
1.0853515625e-08,4.283653706827933e-05,1.0853515625e-08,0.1464843750000029,1.0853515625e-08,0.8535156249999988
1.09267578125e-08,4.033376270343005e-05,1.09267578125e-08,0.07324218750000111,1.09267578125e-08,0.9267578125000004
1.1e-08,8.929148562440611e-06,1.1e-08,9.992007221626409e-16,1.1e-08,1
1.1146484375e-08,5.936995063471142e-06,1.1146484375e-08,0,1.1146484375e-08,1
1.12197265625e-08,5.504696227988421e-06,1.12197265625e-08,0,1.12197265625e-08,1
1.13662109375e-08,5.168661335607863e-06,1.13662109375e-08,0,1.13662109375e-08,1
1.137078857421875e-08,5.409746097487214e-06,1.137078857421875e-08,0,1.137078857421875e-08,1
1.137994384765625e-08,5.303574191794178e-06,1.137994384765625e-08,0,1.137994384765625e-08,1
1.139825439453125e-08,5.375394083215935e-06,1.139825439453125e-08,0,1.139825439453125e-08,1
1.143487548828124e-08,5.316792715935885e-06,1.143487548828124e-08,0,1.143487548828124e-08,1
1.150811767578123e-08,5.369409313222605e-06,1.150811767578123e-08,0,1.150811767578123e-08,1
1.165460205078121e-08,5.319472531106748e-06,1.165460205078121e-08,0,1.165460205078121e-08,1
1.194757080078116e-08,5.36812080179595e-06,1.194757080078116e-08,0,1.194757080078116e-08,1
1.253350830078107e-08,5.320104891306304e-06,1.253350830078107e-08,0,1.253350830078107e-08,1
1.333350830078107e-08,5.367556732715107e-06,1.333350830078107e-08,0,1.333350830078107e-08,1
1.413350830078107e-08,5.320412114311497e-06,1.413350830078107e-08,0,1.413350830078107e-08,1
1.456675415039054e-08,5.367278753303771e-06,1.456675415039054e-08,0,1.456675415039054e-08,1
1.5e-08,5.320982123169659e-06,1.5e-08,0,1.5e-08,1
1.5125e-08,6.838731171816482e-06,1.5125e-08,0,1.5125e-08,0.874999999999998
1.5375e-08,0.0002488371642173664,1.5375e-08,0,1.5375e-08,0.6249999999999991
1.5453125e-08,0.001161921028729438,1.5453125e-08,0,1.5453125e-08,0.5468749999999999
1.5609375e-08,0.6489844961707396,1.5609375e-08,0,1.5609375e-08,0.3906250000000014
1.58046875e-08,1.058456486533776,1.58046875e-08,0,1.58046875e-08,0.1953125
1.581689453125e-08,1.035038452768161,1.581689453125e-08,0,1.581689453125e-08,0.1831054687499997
1.584130859375e-08,1.049530890297117,1.584130859375e-08,0,1.584130859375e-08,0.1586914062499991
1.589013671875e-08,1.038444044489069,1.589013671875e-08,0,1.589013671875e-08,0.1098632812499979
1.5945068359375e-08,1.047153930411798,1.5945068359375e-08,0,1.5945068359375e-08,0.05493164062499989
1.6e-08,1.037756994038666,1.6e-08,0,1.6e-08,0
1.610986328125e-08,1.04143062959949,1.610986328125e-08,0,1.610986328125e-08,0
1.629338452340008e-08,1.041521654674294,1.629338452340008e-08,0,1.629338452340008e-08,0
1.638514514447512e-08,1.04143463045053,1.638514514447512e-08,0,1.638514514447512e-08,0
1.656866638662519e-08,1.041517877384621,1.656866638662519e-08,0,1.656866638662519e-08,0
1.693570887092534e-08,1.04143712610288,1.693570887092534e-08,0,1.693570887092534e-08,0
1.766979383952565e-08,1.041517445003951,1.766979383952565e-08,0,1.766979383952565e-08,0
1.846979383952565e-08,1.041437187683782,1.846979383952565e-08,0,1.846979383952565e-08,0
1.926979383952565e-08,1.041516350848074,1.926979383952565e-08,0,1.926979383952565e-08,0
2e-08,1.041437682072336,2e-08,0,2e-08,0
2.0125e-08,1.045919484061183,2.0125e-08,0.1249999999999995,2.0125e-08,0.1249999999999995
2.0375e-08,1.004220813837907,2.0375e-08,0.3749999999999984,2.0375e-08,0.3749999999999984
2.0453125e-08,0.02214182694553623,2.0453125e-08,0.4531249999999976,2.0453125e-08,0.4531249999999976
2.0609375e-08,-0.0001237248207008692,2.0609375e-08,0.6093749999999961,2.0609375e-08,0.6093749999999961
2.079056506100282e-08,0.0001902616974935814,2.079056506100282e-08,0.7905650610028171,2.079056506100282e-08,0.7905650610028171
2.089528253050141e-08,-8.543915186878355e-05,2.089528253050141e-08,0.8952825305014064,2.089528253050141e-08,0.8952825305014064
2.1e-08,0.0001197326821506463,2.1e-08,0.999999999999999,2.1e-08,0.999999999999999
2.104327995421508e-08,7.226799705000013e-07,2.104327995421508e-08,1,2.104327995421508e-08,1
2.112983986264524e-08,5.856177363757396e-07,2.112983986264524e-08,1,2.112983986264524e-08,1
2.116651527628132e-08,7.124648901055131e-07,2.116651527628132e-08,1,2.116651527628132e-08,1
2.123986610355349e-08,5.964673664483025e-07,2.123986610355349e-08,1,2.123986610355349e-08,1
2.138656775809782e-08,7.102001337988407e-07,2.138656775809782e-08,1,2.138656775809782e-08,1
2.167997106718649e-08,6.032832113298567e-07,2.167997106718649e-08,1,2.167997106718649e-08,1
2.182667272173083e-08,7.086109486861682e-07,2.182667272173083e-08,1,2.182667272173083e-08,1
2.21200760308195e-08,6.045091990503237e-07,2.21200760308195e-08,1,2.21200760308195e-08,1
2.270688264899683e-08,7.078853085566152e-07,2.270688264899683e-08,1,2.270688264899683e-08,1
2.350688264899683e-08,6.045225349921868e-07,2.350688264899683e-08,1,2.350688264899683e-08,1
2.430688264899684e-08,7.075130817238258e-07,2.430688264899684e-08,1,2.430688264899684e-08,1
2.5e-08,6.053984090673791e-07,2.5e-08,1,2.5e-08,1
2.5125e-08,-5.496333026533219e-06,2.5125e-08,1,2.5125e-08,0.8750000000000013
2.5375e-08,-1.172173718228303e-05,2.5375e-08,1,2.5375e-08,0.6250000000000024
2.539453125e-08,-2.579446769859369e-06,2.539453125e-08,1,2.539453125e-08,0.6054687500000027
2.543359375e-08,-1.171285810389671e-05,2.543359375e-08,1,2.543359375e-08,0.566406250000003
2.551171875e-08,1.65828448548636e-07,2.551171875e-08,1,2.551171875e-08,0.4882812500000038
2.566796874999999e-08,-3.329015871781065e-06,2.566796874999999e-08,1,2.566796874999999e-08,0.3320312500000053
2.583398437499999e-08,1.030145982978593e-05,2.583398437499999e-08,1,2.583398437499999e-08,0.1660156250000052
2.6e-08,-3.539230510464335e-07,2.6e-08,1,2.6e-08,1.887379141862766e-15
2.633203125e-08,7.423134207363218e-06,2.633203125e-08,1,2.633203125e-08,0
2.679827371937617e-08,7.434572635484627e-06,2.679827371937617e-08,1,2.679827371937617e-08,0
2.699827371937617e-08,7.43412329715531e-06,2.699827371937617e-08,1,2.699827371937617e-08,0
2.739827371937617e-08,7.435115274168255e-06,2.739827371937617e-08,1,2.739827371937617e-08,0
2.819827371937617e-08,7.43412354278491e-06,2.819827371937617e-08,1,2.819827371937617e-08,0
2.899827371937617e-08,7.435115169691015e-06,2.899827371937617e-08,1,2.899827371937617e-08,0
2.949913685968809e-08,7.434123678443121e-06,2.949913685968809e-08,1,2.949913685968809e-08,0
3e-08,7.435115002862288e-06,3e-08,1,3e-08,0
3.0125e-08,1.517720591844608e-05,3.0125e-08,0.8750000000000022,3.0125e-08,0.1249999999999961
3.037499999999999e-08,0.0002896505151642548,3.037499999999999e-08,0.6250000000000099,3.037499999999999e-08,0.3749999999999885
3.045312499999999e-08,0.0009820906623686648,3.045312499999999e-08,0.5468750000000107,3.045312499999999e-08,0.4531249999999877
3.060937499999999e-08,0.0003489912839518738,3.060937499999999e-08,0.3906250000000122,3.060937499999999e-08,0.6093749999999862
3.080468749999999e-08,8.97051255361876e-05,3.080468749999999e-08,0.1953125000000074,3.080468749999999e-08,0.8046874999999909
3.0853515625e-08,4.283668727824531e-05,3.0853515625e-08,0.1464843750000062,3.0853515625e-08,0.8535156249999921
3.09267578125e-08,4.033362838105441e-05,3.09267578125e-08,0.07324218750000444,3.09267578125e-08,0.9267578124999939
3.100000000000001e-08,8.929272918163772e-06,3.100000000000001e-08,0,3.100000000000001e-08,1
3.114648437500002e-08,5.93699507504008e-06,3.114648437500002e-08,0,3.114648437500002e-08,1
3.121972656250003e-08,5.504696216592705e-06,3.121972656250003e-08,0,3.121972656250003e-08,1
3.136621093750005e-08,5.168661347526567e-06,3.136621093750005e-08,0,3.136621093750005e-08,1
3.13707885742188e-08,5.409746077821044e-06,3.13707885742188e-08,0,3.13707885742188e-08,1
3.13799438476563e-08,5.303574209845863e-06,3.13799438476563e-08,0,3.13799438476563e-08,1
3.139825439453129e-08,5.375394065592826e-06,3.139825439453129e-08,0,3.139825439453129e-08,1
3.143487548828129e-08,5.316792733444594e-06,3.143487548828129e-08,0,3.143487548828129e-08,1
3.150811767578128e-08,5.369409295795777e-06,3.150811767578128e-08,0,3.150811767578128e-08,1
3.165460205078125e-08,5.319472548493007e-06,3.165460205078125e-08,0,3.165460205078125e-08,1
3.194757080078121e-08,5.36812078443018e-06,3.194757080078121e-08,0,3.194757080078121e-08,1
3.253350830078112e-08,5.320104908662353e-06,3.253350830078112e-08,0,3.253350830078112e-08,1
3.333350830078112e-08,5.367556715381985e-06,3.333350830078112e-08,0,3.333350830078112e-08,1
3.413350830078112e-08,5.320412131653273e-06,3.413350830078112e-08,0,3.413350830078112e-08,1
3.456675415039056e-08,5.367278735979433e-06,3.456675415039056e-08,0,3.456675415039056e-08,1
3.500000000000001e-08,5.320982140483099e-06,3.500000000000001e-08,0,3.500000000000001e-08,1
3.512500000000001e-08,6.838731171828355e-06,3.512500000000001e-08,0,3.512500000000001e-08,0.874999999999998
3.5375e-08,0.0002488371642172429,3.5375e-08,0,3.5375e-08,0.6250000000000058
3.5453125e-08,0.001161921028729448,3.5453125e-08,0,3.5453125e-08,0.5468750000000064
3.5609375e-08,0.6489844961705645,3.5609375e-08,0,3.5609375e-08,0.390625000000008
3.58046875e-08,1.058456486533771,3.58046875e-08,0,3.58046875e-08,0.1953125000000033
3.600000000000001e-08,1.028472161117597,3.600000000000001e-08,0,3.600000000000001e-08,0
3.60745357636242e-08,1.041239681714151,3.60745357636242e-08,0,3.60745357636242e-08,0
3.622360729087258e-08,1.041705284879174,3.622360729087258e-08,0,3.622360729087258e-08,0
3.652175034536934e-08,1.041252462050674,3.652175034536934e-08,0,3.652175034536934e-08,0
3.667082187261772e-08,1.041693598308558,3.667082187261772e-08,0,3.667082187261772e-08,0
3.696896492711448e-08,1.041264724608044,3.696896492711448e-08,0,3.696896492711448e-08,0
3.7565251036108e-08,1.041686939749895,3.7565251036108e-08,0,3.7565251036108e-08,0
3.8365251036108e-08,1.041268136248582,3.8365251036108e-08,0,3.8365251036108e-08,0
3.9165251036108e-08,1.041685537905585,3.9165251036108e-08,0,3.9165251036108e-08,0
3.9582625518054e-08,1.04127267975534,3.9582625518054e-08,0,3.9582625518054e-08,0
4e-08,1.041679214559585,4e-08,0,4e-08,0
